# Reading D:/Quartus/Quartus/modelsim_ase/tcl/vsim/pref.tcl
# ERROR: No extended dataflow license exists
# do regfile_run_msim_rtl_verilog.do
# if {[file exists rtl_work]} {
# 	vdel -lib rtl_work -all
# }
# vlib rtl_work
# vmap work rtl_work
# Model Technology ModelSim - Intel FPGA Edition vmap 10.5b Lib Mapping Utility 2016.10 Oct  5 2016
# vmap work rtl_work 
# Copying D:/Quartus/Quartus/modelsim_ase/win32aloem/../modelsim.ini to modelsim.ini
# Modifying modelsim.ini
# 
# vlog -vlog01compat -work work +incdir+D:/Quartus/ECE550/Registerfile {D:/Quartus/ECE550/Registerfile/regfile.v}
# Model Technology ModelSim - Intel FPGA Edition vlog 10.5b Compiler 2016.10 Oct  5 2016
# Start time: 15:07:30 on Sep 26,2023
# vlog -reportprogress 300 -vlog01compat -work work "+incdir+D:/Quartus/ECE550/Registerfile" D:/Quartus/ECE550/Registerfile/regfile.v 
# -- Compiling module regfile
# 
# Top level modules:
# 	regfile
# End time: 15:07:30 on Sep 26,2023, Elapsed time: 0:00:00
# Errors: 0, Warnings: 0
# vlog -vlog01compat -work work +incdir+D:/Quartus/ECE550/Registerfile {D:/Quartus/ECE550/Registerfile/tristate.v}
# Model Technology ModelSim - Intel FPGA Edition vlog 10.5b Compiler 2016.10 Oct  5 2016
# Start time: 15:07:30 on Sep 26,2023
# vlog -reportprogress 300 -vlog01compat -work work "+incdir+D:/Quartus/ECE550/Registerfile" D:/Quartus/ECE550/Registerfile/tristate.v 
# -- Compiling module tristate
# 
# Top level modules:
# 	tristate
# End time: 15:07:30 on Sep 26,2023, Elapsed time: 0:00:00
# Errors: 0, Warnings: 0
# vlog -vlog01compat -work work +incdir+D:/Quartus/ECE550/Registerfile {D:/Quartus/ECE550/Registerfile/and32_1.v}
# Model Technology ModelSim - Intel FPGA Edition vlog 10.5b Compiler 2016.10 Oct  5 2016
# Start time: 15:07:30 on Sep 26,2023
# vlog -reportprogress 300 -vlog01compat -work work "+incdir+D:/Quartus/ECE550/Registerfile" D:/Quartus/ECE550/Registerfile/and32_1.v 
# -- Compiling module and32_1
# 
# Top level modules:
# 	and32_1
# End time: 15:07:30 on Sep 26,2023, Elapsed time: 0:00:00
# Errors: 0, Warnings: 0
# vlog -vlog01compat -work work +incdir+D:/Quartus/ECE550/Registerfile {D:/Quartus/ECE550/Registerfile/dff_32.v}
# Model Technology ModelSim - Intel FPGA Edition vlog 10.5b Compiler 2016.10 Oct  5 2016
# Start time: 15:07:30 on Sep 26,2023
# vlog -reportprogress 300 -vlog01compat -work work "+incdir+D:/Quartus/ECE550/Registerfile" D:/Quartus/ECE550/Registerfile/dff_32.v 
# -- Compiling module dff_32
# 
# Top level modules:
# 	dff_32
# End time: 15:07:30 on Sep 26,2023, Elapsed time: 0:00:00
# Errors: 0, Warnings: 0
# vlog -vlog01compat -work work +incdir+D:/Quartus/ECE550/Registerfile {D:/Quartus/ECE550/Registerfile/dflipflop.v}
# Model Technology ModelSim - Intel FPGA Edition vlog 10.5b Compiler 2016.10 Oct  5 2016
# Start time: 15:07:30 on Sep 26,2023
# vlog -reportprogress 300 -vlog01compat -work work "+incdir+D:/Quartus/ECE550/Registerfile" D:/Quartus/ECE550/Registerfile/dflipflop.v 
# -- Compiling module dflipflop
# 
# Top level modules:
# 	dflipflop
# End time: 15:07:30 on Sep 26,2023, Elapsed time: 0:00:00
# Errors: 0, Warnings: 0
# vlog -vlog01compat -work work +incdir+D:/Quartus/ECE550/Registerfile {D:/Quartus/ECE550/Registerfile/decoder_32.v}
# Model Technology ModelSim - Intel FPGA Edition vlog 10.5b Compiler 2016.10 Oct  5 2016
# Start time: 15:07:30 on Sep 26,2023
# vlog -reportprogress 300 -vlog01compat -work work "+incdir+D:/Quartus/ECE550/Registerfile" D:/Quartus/ECE550/Registerfile/decoder_32.v 
# -- Compiling module decoder_32
# 
# Top level modules:
# 	decoder_32
# End time: 15:07:30 on Sep 26,2023, Elapsed time: 0:00:00
# Errors: 0, Warnings: 0
# 
# vlog -vlog01compat -work work +incdir+D:/Quartus/ECE550/Registerfile {D:/Quartus/ECE550/Registerfile/regfile_tb.v}
# Model Technology ModelSim - Intel FPGA Edition vlog 10.5b Compiler 2016.10 Oct  5 2016
# Start time: 15:07:30 on Sep 26,2023
# vlog -reportprogress 300 -vlog01compat -work work "+incdir+D:/Quartus/ECE550/Registerfile" D:/Quartus/ECE550/Registerfile/regfile_tb.v 
# -- Compiling module regfile_tb
# 
# Top level modules:
# 	regfile_tb
# End time: 15:07:31 on Sep 26,2023, Elapsed time: 0:00:01
# Errors: 0, Warnings: 0
# 
# vsim -t 1ps -L altera_ver -L lpm_ver -L sgate_ver -L altera_mf_ver -L altera_lnsim_ver -L cycloneive_ver -L rtl_work -L work -voptargs="+acc"  regfile_tb
# vsim -t 1ps -L altera_ver -L lpm_ver -L sgate_ver -L altera_mf_ver -L altera_lnsim_ver -L cycloneive_ver -L rtl_work -L work -voptargs=""+acc"" regfile_tb 
# Start time: 15:07:32 on Sep 26,2023
# Loading work.regfile_tb
# Loading work.regfile
# Loading work.decoder_32
# Loading work.and32_1
# Loading work.dff_32
# Loading work.dflipflop
# Loading work.tristate
# 
# add wave *
# view structure
# .main_pane.structure.interior.cs.body.struct
# view signals
# .main_pane.objects.interior.cs.body.tree
# run -all
#                    0 << Starting the Simulation >>
#                  120 << Writing register  0 with 0000dead >>
#                  160 << Writing register  1 with 0000dead >>
#                  240 << Writing register  2 with 0000dead >>
#                  320 << Writing register  3 with 0000dead >>
#                  400 << Writing register  4 with 0000dead >>
#                  480 << Writing register  5 with 0000dead >>
#                  560 << Writing register  6 with 0000dead >>
#                  640 << Writing register  7 with 0000dead >>
#                  720 << Writing register  8 with 0000dead >>
#                  800 << Writing register  9 with 0000dead >>
#                  880 << Writing register 10 with 0000dead >>
#                  960 << Writing register 11 with 0000dead >>
#                 1040 << Writing register 12 with 0000dead >>
#                 1120 << Writing register 13 with 0000dead >>
#                 1200 << Writing register 14 with 0000dead >>
#                 1280 << Writing register 15 with 0000dead >>
#                 1360 << Writing register 16 with 0000dead >>
#                 1440 << Writing register 17 with 0000dead >>
#                 1520 << Writing register 18 with 0000dead >>
#                 1600 << Writing register 19 with 0000dead >>
#                 1680 << Writing register 20 with 0000dead >>
#                 1760 << Writing register 21 with 0000dead >>
#                 1840 << Writing register 22 with 0000dead >>
#                 1920 << Writing register 23 with 0000dead >>
#                 2000 << Writing register 24 with 0000dead >>
#                 2080 << Writing register 25 with 0000dead >>
#                 2160 << Writing register 26 with 0000dead >>
#                 2240 << Writing register 27 with 0000dead >>
#                 2320 << Writing register 28 with 0000dead >>
#                 2400 << Writing register 29 with 0000dead >>
#                 2480 << Writing register 30 with 0000dead >>
#                 2560 << Writing register 31 with 0000dead >>
#                 2640 << Writing register  1 with 00000001 >>
#                 2720 << Writing register  1 with 00000002 >>
#                 2800 << Writing register  1 with 00000004 >>
#                 2880 << Writing register  1 with 00000008 >>
#                 2960 << Writing register  1 with 00000010 >>
#                 3040 << Writing register  1 with 00000020 >>
#                 3120 << Writing register  1 with 00000040 >>
#                 3200 << Writing register  1 with 00000080 >>
#                 3280 << Writing register  1 with 00000100 >>
#                 3360 << Writing register  1 with 00000200 >>
#                 3440 << Writing register  1 with 00000400 >>
#                 3520 << Writing register  1 with 00000800 >>
#                 3600 << Writing register  1 with 00001000 >>
#                 3680 << Writing register  1 with 00002000 >>
#                 3760 << Writing register  1 with 00004000 >>
#                 3840 << Writing register  1 with 00008000 >>
#                 3920 << Writing register  1 with 00010000 >>
#                 4000 << Writing register  1 with 00020000 >>
#                 4080 << Writing register  1 with 00040000 >>
#                 4160 << Writing register  1 with 00080000 >>
#                 4240 << Writing register  1 with 00100000 >>
#                 4320 << Writing register  1 with 00200000 >>
#                 4400 << Writing register  1 with 00400000 >>
#                 4480 << Writing register  1 with 00800000 >>
#                 4560 << Writing register  1 with 01000000 >>
#                 4640 << Writing register  1 with 02000000 >>
#                 4720 << Writing register  1 with 04000000 >>
#                 4800 << Writing register  1 with 08000000 >>
#                 4880 << Writing register  1 with 10000000 >>
#                 4960 << Writing register  1 with 20000000 >>
#                 5040 << Writing register  1 with 40000000 >>
#                 5120 << Writing register  1 with 80000000 >>
#                 5200 << Writing register  2 with 00000001 >>
#                 5280 << Writing register  2 with 00000002 >>
#                 5360 << Writing register  2 with 00000004 >>
#                 5440 << Writing register  2 with 00000008 >>
#                 5520 << Writing register  2 with 00000010 >>
#                 5600 << Writing register  2 with 00000020 >>
#                 5680 << Writing register  2 with 00000040 >>
#                 5760 << Writing register  2 with 00000080 >>
#                 5840 << Writing register  2 with 00000100 >>
#                 5920 << Writing register  2 with 00000200 >>
#                 6000 << Writing register  2 with 00000400 >>
#                 6080 << Writing register  2 with 00000800 >>
#                 6160 << Writing register  2 with 00001000 >>
#                 6240 << Writing register  2 with 00002000 >>
#                 6320 << Writing register  2 with 00004000 >>
#                 6400 << Writing register  2 with 00008000 >>
#                 6480 << Writing register  2 with 00010000 >>
#                 6560 << Writing register  2 with 00020000 >>
#                 6640 << Writing register  2 with 00040000 >>
#                 6720 << Writing register  2 with 00080000 >>
#                 6800 << Writing register  2 with 00100000 >>
#                 6880 << Writing register  2 with 00200000 >>
#                 6960 << Writing register  2 with 00400000 >>
#                 7040 << Writing register  2 with 00800000 >>
#                 7120 << Writing register  2 with 01000000 >>
#                 7200 << Writing register  2 with 02000000 >>
#                 7280 << Writing register  2 with 04000000 >>
#                 7360 << Writing register  2 with 08000000 >>
#                 7440 << Writing register  2 with 10000000 >>
#                 7520 << Writing register  2 with 20000000 >>
#                 7600 << Writing register  2 with 40000000 >>
#                 7680 << Writing register  2 with 80000000 >>
#                 7760 << Writing register  3 with 00000001 >>
#                 7840 << Writing register  3 with 00000002 >>
#                 7920 << Writing register  3 with 00000004 >>
#                 8000 << Writing register  3 with 00000008 >>
#                 8080 << Writing register  3 with 00000010 >>
#                 8160 << Writing register  3 with 00000020 >>
#                 8240 << Writing register  3 with 00000040 >>
#                 8320 << Writing register  3 with 00000080 >>
#                 8400 << Writing register  3 with 00000100 >>
#                 8480 << Writing register  3 with 00000200 >>
#                 8560 << Writing register  3 with 00000400 >>
#                 8640 << Writing register  3 with 00000800 >>
#                 8720 << Writing register  3 with 00001000 >>
#                 8800 << Writing register  3 with 00002000 >>
#                 8880 << Writing register  3 with 00004000 >>
#                 8960 << Writing register  3 with 00008000 >>
#                 9040 << Writing register  3 with 00010000 >>
#                 9120 << Writing register  3 with 00020000 >>
#                 9200 << Writing register  3 with 00040000 >>
#                 9280 << Writing register  3 with 00080000 >>
#                 9360 << Writing register  3 with 00100000 >>
#                 9440 << Writing register  3 with 00200000 >>
#                 9520 << Writing register  3 with 00400000 >>
#                 9600 << Writing register  3 with 00800000 >>
#                 9680 << Writing register  3 with 01000000 >>
#                 9760 << Writing register  3 with 02000000 >>
#                 9840 << Writing register  3 with 04000000 >>
#                 9920 << Writing register  3 with 08000000 >>
#                10000 << Writing register  3 with 10000000 >>
#                10080 << Writing register  3 with 20000000 >>
#                10160 << Writing register  3 with 40000000 >>
#                10240 << Writing register  3 with 80000000 >>
#                10320 << Writing register  4 with 00000001 >>
#                10400 << Writing register  4 with 00000002 >>
#                10480 << Writing register  4 with 00000004 >>
#                10560 << Writing register  4 with 00000008 >>
#                10640 << Writing register  4 with 00000010 >>
#                10720 << Writing register  4 with 00000020 >>
#                10800 << Writing register  4 with 00000040 >>
#                10880 << Writing register  4 with 00000080 >>
#                10960 << Writing register  4 with 00000100 >>
#                11040 << Writing register  4 with 00000200 >>
#                11120 << Writing register  4 with 00000400 >>
#                11200 << Writing register  4 with 00000800 >>
#                11280 << Writing register  4 with 00001000 >>
#                11360 << Writing register  4 with 00002000 >>
#                11440 << Writing register  4 with 00004000 >>
#                11520 << Writing register  4 with 00008000 >>
#                11600 << Writing register  4 with 00010000 >>
#                11680 << Writing register  4 with 00020000 >>
#                11760 << Writing register  4 with 00040000 >>
#                11840 << Writing register  4 with 00080000 >>
#                11920 << Writing register  4 with 00100000 >>
#                12000 << Writing register  4 with 00200000 >>
#                12080 << Writing register  4 with 00400000 >>
#                12160 << Writing register  4 with 00800000 >>
#                12240 << Writing register  4 with 01000000 >>
#                12320 << Writing register  4 with 02000000 >>
#                12400 << Writing register  4 with 04000000 >>
#                12480 << Writing register  4 with 08000000 >>
#                12560 << Writing register  4 with 10000000 >>
#                12640 << Writing register  4 with 20000000 >>
#                12720 << Writing register  4 with 40000000 >>
#                12800 << Writing register  4 with 80000000 >>
#                12880 << Writing register  5 with 00000001 >>
#                12960 << Writing register  5 with 00000002 >>
#                13040 << Writing register  5 with 00000004 >>
#                13120 << Writing register  5 with 00000008 >>
#                13200 << Writing register  5 with 00000010 >>
#                13280 << Writing register  5 with 00000020 >>
#                13360 << Writing register  5 with 00000040 >>
#                13440 << Writing register  5 with 00000080 >>
#                13520 << Writing register  5 with 00000100 >>
#                13600 << Writing register  5 with 00000200 >>
#                13680 << Writing register  5 with 00000400 >>
#                13760 << Writing register  5 with 00000800 >>
#                13840 << Writing register  5 with 00001000 >>
#                13920 << Writing register  5 with 00002000 >>
#                14000 << Writing register  5 with 00004000 >>
#                14080 << Writing register  5 with 00008000 >>
#                14160 << Writing register  5 with 00010000 >>
#                14240 << Writing register  5 with 00020000 >>
#                14320 << Writing register  5 with 00040000 >>
#                14400 << Writing register  5 with 00080000 >>
#                14480 << Writing register  5 with 00100000 >>
#                14560 << Writing register  5 with 00200000 >>
#                14640 << Writing register  5 with 00400000 >>
#                14720 << Writing register  5 with 00800000 >>
#                14800 << Writing register  5 with 01000000 >>
#                14880 << Writing register  5 with 02000000 >>
#                14960 << Writing register  5 with 04000000 >>
#                15040 << Writing register  5 with 08000000 >>
#                15120 << Writing register  5 with 10000000 >>
#                15200 << Writing register  5 with 20000000 >>
#                15280 << Writing register  5 with 40000000 >>
#                15360 << Writing register  5 with 80000000 >>
#                15440 << Writing register  6 with 00000001 >>
#                15520 << Writing register  6 with 00000002 >>
#                15600 << Writing register  6 with 00000004 >>
#                15680 << Writing register  6 with 00000008 >>
#                15760 << Writing register  6 with 00000010 >>
#                15840 << Writing register  6 with 00000020 >>
#                15920 << Writing register  6 with 00000040 >>
#                16000 << Writing register  6 with 00000080 >>
#                16080 << Writing register  6 with 00000100 >>
#                16160 << Writing register  6 with 00000200 >>
#                16240 << Writing register  6 with 00000400 >>
#                16320 << Writing register  6 with 00000800 >>
#                16400 << Writing register  6 with 00001000 >>
#                16480 << Writing register  6 with 00002000 >>
#                16560 << Writing register  6 with 00004000 >>
#                16640 << Writing register  6 with 00008000 >>
#                16720 << Writing register  6 with 00010000 >>
#                16800 << Writing register  6 with 00020000 >>
#                16880 << Writing register  6 with 00040000 >>
#                16960 << Writing register  6 with 00080000 >>
#                17040 << Writing register  6 with 00100000 >>
#                17120 << Writing register  6 with 00200000 >>
#                17200 << Writing register  6 with 00400000 >>
#                17280 << Writing register  6 with 00800000 >>
#                17360 << Writing register  6 with 01000000 >>
#                17440 << Writing register  6 with 02000000 >>
#                17520 << Writing register  6 with 04000000 >>
#                17600 << Writing register  6 with 08000000 >>
#                17680 << Writing register  6 with 10000000 >>
#                17760 << Writing register  6 with 20000000 >>
#                17840 << Writing register  6 with 40000000 >>
#                17920 << Writing register  6 with 80000000 >>
#                18000 << Writing register  7 with 00000001 >>
#                18080 << Writing register  7 with 00000002 >>
#                18160 << Writing register  7 with 00000004 >>
#                18240 << Writing register  7 with 00000008 >>
#                18320 << Writing register  7 with 00000010 >>
#                18400 << Writing register  7 with 00000020 >>
#                18480 << Writing register  7 with 00000040 >>
#                18560 << Writing register  7 with 00000080 >>
#                18640 << Writing register  7 with 00000100 >>
#                18720 << Writing register  7 with 00000200 >>
#                18800 << Writing register  7 with 00000400 >>
#                18880 << Writing register  7 with 00000800 >>
#                18960 << Writing register  7 with 00001000 >>
#                19040 << Writing register  7 with 00002000 >>
#                19120 << Writing register  7 with 00004000 >>
#                19200 << Writing register  7 with 00008000 >>
#                19280 << Writing register  7 with 00010000 >>
#                19360 << Writing register  7 with 00020000 >>
#                19440 << Writing register  7 with 00040000 >>
#                19520 << Writing register  7 with 00080000 >>
#                19600 << Writing register  7 with 00100000 >>
#                19680 << Writing register  7 with 00200000 >>
#                19760 << Writing register  7 with 00400000 >>
#                19840 << Writing register  7 with 00800000 >>
#                19920 << Writing register  7 with 01000000 >>
#                20000 << Writing register  7 with 02000000 >>
#                20080 << Writing register  7 with 04000000 >>
#                20160 << Writing register  7 with 08000000 >>
#                20240 << Writing register  7 with 10000000 >>
#                20320 << Writing register  7 with 20000000 >>
#                20400 << Writing register  7 with 40000000 >>
#                20480 << Writing register  7 with 80000000 >>
#                20560 << Writing register  8 with 00000001 >>
#                20640 << Writing register  8 with 00000002 >>
#                20720 << Writing register  8 with 00000004 >>
#                20800 << Writing register  8 with 00000008 >>
#                20880 << Writing register  8 with 00000010 >>
#                20960 << Writing register  8 with 00000020 >>
#                21040 << Writing register  8 with 00000040 >>
#                21120 << Writing register  8 with 00000080 >>
#                21200 << Writing register  8 with 00000100 >>
#                21280 << Writing register  8 with 00000200 >>
#                21360 << Writing register  8 with 00000400 >>
#                21440 << Writing register  8 with 00000800 >>
#                21520 << Writing register  8 with 00001000 >>
#                21600 << Writing register  8 with 00002000 >>
#                21680 << Writing register  8 with 00004000 >>
#                21760 << Writing register  8 with 00008000 >>
#                21840 << Writing register  8 with 00010000 >>
#                21920 << Writing register  8 with 00020000 >>
#                22000 << Writing register  8 with 00040000 >>
#                22080 << Writing register  8 with 00080000 >>
#                22160 << Writing register  8 with 00100000 >>
#                22240 << Writing register  8 with 00200000 >>
#                22320 << Writing register  8 with 00400000 >>
#                22400 << Writing register  8 with 00800000 >>
#                22480 << Writing register  8 with 01000000 >>
#                22560 << Writing register  8 with 02000000 >>
#                22640 << Writing register  8 with 04000000 >>
#                22720 << Writing register  8 with 08000000 >>
#                22800 << Writing register  8 with 10000000 >>
#                22880 << Writing register  8 with 20000000 >>
#                22960 << Writing register  8 with 40000000 >>
#                23040 << Writing register  8 with 80000000 >>
#                23120 << Writing register  9 with 00000001 >>
#                23200 << Writing register  9 with 00000002 >>
#                23280 << Writing register  9 with 00000004 >>
#                23360 << Writing register  9 with 00000008 >>
#                23440 << Writing register  9 with 00000010 >>
#                23520 << Writing register  9 with 00000020 >>
#                23600 << Writing register  9 with 00000040 >>
#                23680 << Writing register  9 with 00000080 >>
#                23760 << Writing register  9 with 00000100 >>
#                23840 << Writing register  9 with 00000200 >>
#                23920 << Writing register  9 with 00000400 >>
#                24000 << Writing register  9 with 00000800 >>
#                24080 << Writing register  9 with 00001000 >>
#                24160 << Writing register  9 with 00002000 >>
#                24240 << Writing register  9 with 00004000 >>
#                24320 << Writing register  9 with 00008000 >>
#                24400 << Writing register  9 with 00010000 >>
#                24480 << Writing register  9 with 00020000 >>
#                24560 << Writing register  9 with 00040000 >>
#                24640 << Writing register  9 with 00080000 >>
#                24720 << Writing register  9 with 00100000 >>
#                24800 << Writing register  9 with 00200000 >>
#                24880 << Writing register  9 with 00400000 >>
#                24960 << Writing register  9 with 00800000 >>
#                25040 << Writing register  9 with 01000000 >>
#                25120 << Writing register  9 with 02000000 >>
#                25200 << Writing register  9 with 04000000 >>
#                25280 << Writing register  9 with 08000000 >>
#                25360 << Writing register  9 with 10000000 >>
#                25440 << Writing register  9 with 20000000 >>
#                25520 << Writing register  9 with 40000000 >>
#                25600 << Writing register  9 with 80000000 >>
#                25680 << Writing register 10 with 00000001 >>
#                25760 << Writing register 10 with 00000002 >>
#                25840 << Writing register 10 with 00000004 >>
#                25920 << Writing register 10 with 00000008 >>
#                26000 << Writing register 10 with 00000010 >>
#                26080 << Writing register 10 with 00000020 >>
#                26160 << Writing register 10 with 00000040 >>
#                26240 << Writing register 10 with 00000080 >>
#                26320 << Writing register 10 with 00000100 >>
#                26400 << Writing register 10 with 00000200 >>
#                26480 << Writing register 10 with 00000400 >>
#                26560 << Writing register 10 with 00000800 >>
#                26640 << Writing register 10 with 00001000 >>
#                26720 << Writing register 10 with 00002000 >>
#                26800 << Writing register 10 with 00004000 >>
#                26880 << Writing register 10 with 00008000 >>
#                26960 << Writing register 10 with 00010000 >>
#                27040 << Writing register 10 with 00020000 >>
#                27120 << Writing register 10 with 00040000 >>
#                27200 << Writing register 10 with 00080000 >>
#                27280 << Writing register 10 with 00100000 >>
#                27360 << Writing register 10 with 00200000 >>
#                27440 << Writing register 10 with 00400000 >>
#                27520 << Writing register 10 with 00800000 >>
#                27600 << Writing register 10 with 01000000 >>
#                27680 << Writing register 10 with 02000000 >>
#                27760 << Writing register 10 with 04000000 >>
#                27840 << Writing register 10 with 08000000 >>
#                27920 << Writing register 10 with 10000000 >>
#                28000 << Writing register 10 with 20000000 >>
#                28080 << Writing register 10 with 40000000 >>
#                28160 << Writing register 10 with 80000000 >>
#                28240 << Writing register 11 with 00000001 >>
#                28320 << Writing register 11 with 00000002 >>
#                28400 << Writing register 11 with 00000004 >>
#                28480 << Writing register 11 with 00000008 >>
#                28560 << Writing register 11 with 00000010 >>
#                28640 << Writing register 11 with 00000020 >>
#                28720 << Writing register 11 with 00000040 >>
#                28800 << Writing register 11 with 00000080 >>
#                28880 << Writing register 11 with 00000100 >>
#                28960 << Writing register 11 with 00000200 >>
#                29040 << Writing register 11 with 00000400 >>
#                29120 << Writing register 11 with 00000800 >>
#                29200 << Writing register 11 with 00001000 >>
#                29280 << Writing register 11 with 00002000 >>
#                29360 << Writing register 11 with 00004000 >>
#                29440 << Writing register 11 with 00008000 >>
#                29520 << Writing register 11 with 00010000 >>
#                29600 << Writing register 11 with 00020000 >>
#                29680 << Writing register 11 with 00040000 >>
#                29760 << Writing register 11 with 00080000 >>
#                29840 << Writing register 11 with 00100000 >>
#                29920 << Writing register 11 with 00200000 >>
#                30000 << Writing register 11 with 00400000 >>
#                30080 << Writing register 11 with 00800000 >>
#                30160 << Writing register 11 with 01000000 >>
#                30240 << Writing register 11 with 02000000 >>
#                30320 << Writing register 11 with 04000000 >>
#                30400 << Writing register 11 with 08000000 >>
#                30480 << Writing register 11 with 10000000 >>
#                30560 << Writing register 11 with 20000000 >>
#                30640 << Writing register 11 with 40000000 >>
#                30720 << Writing register 11 with 80000000 >>
#                30800 << Writing register 12 with 00000001 >>
#                30880 << Writing register 12 with 00000002 >>
#                30960 << Writing register 12 with 00000004 >>
#                31040 << Writing register 12 with 00000008 >>
#                31120 << Writing register 12 with 00000010 >>
#                31200 << Writing register 12 with 00000020 >>
#                31280 << Writing register 12 with 00000040 >>
#                31360 << Writing register 12 with 00000080 >>
#                31440 << Writing register 12 with 00000100 >>
#                31520 << Writing register 12 with 00000200 >>
#                31600 << Writing register 12 with 00000400 >>
#                31680 << Writing register 12 with 00000800 >>
#                31760 << Writing register 12 with 00001000 >>
#                31840 << Writing register 12 with 00002000 >>
#                31920 << Writing register 12 with 00004000 >>
#                32000 << Writing register 12 with 00008000 >>
#                32080 << Writing register 12 with 00010000 >>
#                32160 << Writing register 12 with 00020000 >>
#                32240 << Writing register 12 with 00040000 >>
#                32320 << Writing register 12 with 00080000 >>
#                32400 << Writing register 12 with 00100000 >>
#                32480 << Writing register 12 with 00200000 >>
#                32560 << Writing register 12 with 00400000 >>
#                32640 << Writing register 12 with 00800000 >>
#                32720 << Writing register 12 with 01000000 >>
#                32800 << Writing register 12 with 02000000 >>
#                32880 << Writing register 12 with 04000000 >>
#                32960 << Writing register 12 with 08000000 >>
#                33040 << Writing register 12 with 10000000 >>
#                33120 << Writing register 12 with 20000000 >>
#                33200 << Writing register 12 with 40000000 >>
#                33280 << Writing register 12 with 80000000 >>
#                33360 << Writing register 13 with 00000001 >>
#                33440 << Writing register 13 with 00000002 >>
#                33520 << Writing register 13 with 00000004 >>
#                33600 << Writing register 13 with 00000008 >>
#                33680 << Writing register 13 with 00000010 >>
#                33760 << Writing register 13 with 00000020 >>
#                33840 << Writing register 13 with 00000040 >>
#                33920 << Writing register 13 with 00000080 >>
#                34000 << Writing register 13 with 00000100 >>
#                34080 << Writing register 13 with 00000200 >>
#                34160 << Writing register 13 with 00000400 >>
#                34240 << Writing register 13 with 00000800 >>
#                34320 << Writing register 13 with 00001000 >>
#                34400 << Writing register 13 with 00002000 >>
#                34480 << Writing register 13 with 00004000 >>
#                34560 << Writing register 13 with 00008000 >>
#                34640 << Writing register 13 with 00010000 >>
#                34720 << Writing register 13 with 00020000 >>
#                34800 << Writing register 13 with 00040000 >>
#                34880 << Writing register 13 with 00080000 >>
#                34960 << Writing register 13 with 00100000 >>
#                35040 << Writing register 13 with 00200000 >>
#                35120 << Writing register 13 with 00400000 >>
#                35200 << Writing register 13 with 00800000 >>
#                35280 << Writing register 13 with 01000000 >>
#                35360 << Writing register 13 with 02000000 >>
#                35440 << Writing register 13 with 04000000 >>
#                35520 << Writing register 13 with 08000000 >>
#                35600 << Writing register 13 with 10000000 >>
#                35680 << Writing register 13 with 20000000 >>
#                35760 << Writing register 13 with 40000000 >>
#                35840 << Writing register 13 with 80000000 >>
#                35920 << Writing register 14 with 00000001 >>
#                36000 << Writing register 14 with 00000002 >>
#                36080 << Writing register 14 with 00000004 >>
#                36160 << Writing register 14 with 00000008 >>
#                36240 << Writing register 14 with 00000010 >>
#                36320 << Writing register 14 with 00000020 >>
#                36400 << Writing register 14 with 00000040 >>
#                36480 << Writing register 14 with 00000080 >>
#                36560 << Writing register 14 with 00000100 >>
#                36640 << Writing register 14 with 00000200 >>
#                36720 << Writing register 14 with 00000400 >>
#                36800 << Writing register 14 with 00000800 >>
#                36880 << Writing register 14 with 00001000 >>
#                36960 << Writing register 14 with 00002000 >>
#                37040 << Writing register 14 with 00004000 >>
#                37120 << Writing register 14 with 00008000 >>
#                37200 << Writing register 14 with 00010000 >>
#                37280 << Writing register 14 with 00020000 >>
#                37360 << Writing register 14 with 00040000 >>
#                37440 << Writing register 14 with 00080000 >>
#                37520 << Writing register 14 with 00100000 >>
#                37600 << Writing register 14 with 00200000 >>
#                37680 << Writing register 14 with 00400000 >>
#                37760 << Writing register 14 with 00800000 >>
#                37840 << Writing register 14 with 01000000 >>
#                37920 << Writing register 14 with 02000000 >>
#                38000 << Writing register 14 with 04000000 >>
#                38080 << Writing register 14 with 08000000 >>
#                38160 << Writing register 14 with 10000000 >>
#                38240 << Writing register 14 with 20000000 >>
#                38320 << Writing register 14 with 40000000 >>
#                38400 << Writing register 14 with 80000000 >>
#                38480 << Writing register 15 with 00000001 >>
#                38560 << Writing register 15 with 00000002 >>
#                38640 << Writing register 15 with 00000004 >>
#                38720 << Writing register 15 with 00000008 >>
#                38800 << Writing register 15 with 00000010 >>
#                38880 << Writing register 15 with 00000020 >>
#                38960 << Writing register 15 with 00000040 >>
#                39040 << Writing register 15 with 00000080 >>
#                39120 << Writing register 15 with 00000100 >>
#                39200 << Writing register 15 with 00000200 >>
#                39280 << Writing register 15 with 00000400 >>
#                39360 << Writing register 15 with 00000800 >>
#                39440 << Writing register 15 with 00001000 >>
#                39520 << Writing register 15 with 00002000 >>
#                39600 << Writing register 15 with 00004000 >>
#                39680 << Writing register 15 with 00008000 >>
#                39760 << Writing register 15 with 00010000 >>
#                39840 << Writing register 15 with 00020000 >>
#                39920 << Writing register 15 with 00040000 >>
#                40000 << Writing register 15 with 00080000 >>
#                40080 << Writing register 15 with 00100000 >>
#                40160 << Writing register 15 with 00200000 >>
#                40240 << Writing register 15 with 00400000 >>
#                40320 << Writing register 15 with 00800000 >>
#                40400 << Writing register 15 with 01000000 >>
#                40480 << Writing register 15 with 02000000 >>
#                40560 << Writing register 15 with 04000000 >>
#                40640 << Writing register 15 with 08000000 >>
#                40720 << Writing register 15 with 10000000 >>
#                40800 << Writing register 15 with 20000000 >>
#                40880 << Writing register 15 with 40000000 >>
#                40960 << Writing register 15 with 80000000 >>
#                41040 << Writing register 16 with 00000001 >>
#                41120 << Writing register 16 with 00000002 >>
#                41200 << Writing register 16 with 00000004 >>
#                41280 << Writing register 16 with 00000008 >>
#                41360 << Writing register 16 with 00000010 >>
#                41440 << Writing register 16 with 00000020 >>
#                41520 << Writing register 16 with 00000040 >>
#                41600 << Writing register 16 with 00000080 >>
#                41680 << Writing register 16 with 00000100 >>
#                41760 << Writing register 16 with 00000200 >>
#                41840 << Writing register 16 with 00000400 >>
#                41920 << Writing register 16 with 00000800 >>
#                42000 << Writing register 16 with 00001000 >>
#                42080 << Writing register 16 with 00002000 >>
#                42160 << Writing register 16 with 00004000 >>
#                42240 << Writing register 16 with 00008000 >>
#                42320 << Writing register 16 with 00010000 >>
#                42400 << Writing register 16 with 00020000 >>
#                42480 << Writing register 16 with 00040000 >>
#                42560 << Writing register 16 with 00080000 >>
#                42640 << Writing register 16 with 00100000 >>
#                42720 << Writing register 16 with 00200000 >>
#                42800 << Writing register 16 with 00400000 >>
#                42880 << Writing register 16 with 00800000 >>
#                42960 << Writing register 16 with 01000000 >>
#                43040 << Writing register 16 with 02000000 >>
#                43120 << Writing register 16 with 04000000 >>
#                43200 << Writing register 16 with 08000000 >>
#                43280 << Writing register 16 with 10000000 >>
#                43360 << Writing register 16 with 20000000 >>
#                43440 << Writing register 16 with 40000000 >>
#                43520 << Writing register 16 with 80000000 >>
#                43600 << Writing register 17 with 00000001 >>
#                43680 << Writing register 17 with 00000002 >>
#                43760 << Writing register 17 with 00000004 >>
#                43840 << Writing register 17 with 00000008 >>
#                43920 << Writing register 17 with 00000010 >>
#                44000 << Writing register 17 with 00000020 >>
#                44080 << Writing register 17 with 00000040 >>
#                44160 << Writing register 17 with 00000080 >>
#                44240 << Writing register 17 with 00000100 >>
#                44320 << Writing register 17 with 00000200 >>
#                44400 << Writing register 17 with 00000400 >>
#                44480 << Writing register 17 with 00000800 >>
#                44560 << Writing register 17 with 00001000 >>
#                44640 << Writing register 17 with 00002000 >>
#                44720 << Writing register 17 with 00004000 >>
#                44800 << Writing register 17 with 00008000 >>
#                44880 << Writing register 17 with 00010000 >>
#                44960 << Writing register 17 with 00020000 >>
#                45040 << Writing register 17 with 00040000 >>
#                45120 << Writing register 17 with 00080000 >>
#                45200 << Writing register 17 with 00100000 >>
#                45280 << Writing register 17 with 00200000 >>
#                45360 << Writing register 17 with 00400000 >>
#                45440 << Writing register 17 with 00800000 >>
#                45520 << Writing register 17 with 01000000 >>
#                45600 << Writing register 17 with 02000000 >>
#                45680 << Writing register 17 with 04000000 >>
#                45760 << Writing register 17 with 08000000 >>
#                45840 << Writing register 17 with 10000000 >>
#                45920 << Writing register 17 with 20000000 >>
#                46000 << Writing register 17 with 40000000 >>
#                46080 << Writing register 17 with 80000000 >>
#                46160 << Writing register 18 with 00000001 >>
#                46240 << Writing register 18 with 00000002 >>
#                46320 << Writing register 18 with 00000004 >>
#                46400 << Writing register 18 with 00000008 >>
#                46480 << Writing register 18 with 00000010 >>
#                46560 << Writing register 18 with 00000020 >>
#                46640 << Writing register 18 with 00000040 >>
#                46720 << Writing register 18 with 00000080 >>
#                46800 << Writing register 18 with 00000100 >>
#                46880 << Writing register 18 with 00000200 >>
#                46960 << Writing register 18 with 00000400 >>
#                47040 << Writing register 18 with 00000800 >>
#                47120 << Writing register 18 with 00001000 >>
#                47200 << Writing register 18 with 00002000 >>
#                47280 << Writing register 18 with 00004000 >>
#                47360 << Writing register 18 with 00008000 >>
#                47440 << Writing register 18 with 00010000 >>
#                47520 << Writing register 18 with 00020000 >>
#                47600 << Writing register 18 with 00040000 >>
#                47680 << Writing register 18 with 00080000 >>
#                47760 << Writing register 18 with 00100000 >>
#                47840 << Writing register 18 with 00200000 >>
#                47920 << Writing register 18 with 00400000 >>
#                48000 << Writing register 18 with 00800000 >>
#                48080 << Writing register 18 with 01000000 >>
#                48160 << Writing register 18 with 02000000 >>
#                48240 << Writing register 18 with 04000000 >>
#                48320 << Writing register 18 with 08000000 >>
#                48400 << Writing register 18 with 10000000 >>
#                48480 << Writing register 18 with 20000000 >>
#                48560 << Writing register 18 with 40000000 >>
#                48640 << Writing register 18 with 80000000 >>
#                48720 << Writing register 19 with 00000001 >>
#                48800 << Writing register 19 with 00000002 >>
#                48880 << Writing register 19 with 00000004 >>
#                48960 << Writing register 19 with 00000008 >>
#                49040 << Writing register 19 with 00000010 >>
#                49120 << Writing register 19 with 00000020 >>
#                49200 << Writing register 19 with 00000040 >>
#                49280 << Writing register 19 with 00000080 >>
#                49360 << Writing register 19 with 00000100 >>
#                49440 << Writing register 19 with 00000200 >>
#                49520 << Writing register 19 with 00000400 >>
#                49600 << Writing register 19 with 00000800 >>
#                49680 << Writing register 19 with 00001000 >>
#                49760 << Writing register 19 with 00002000 >>
#                49840 << Writing register 19 with 00004000 >>
#                49920 << Writing register 19 with 00008000 >>
#                50000 << Writing register 19 with 00010000 >>
#                50080 << Writing register 19 with 00020000 >>
#                50160 << Writing register 19 with 00040000 >>
#                50240 << Writing register 19 with 00080000 >>
#                50320 << Writing register 19 with 00100000 >>
#                50400 << Writing register 19 with 00200000 >>
#                50480 << Writing register 19 with 00400000 >>
#                50560 << Writing register 19 with 00800000 >>
#                50640 << Writing register 19 with 01000000 >>
#                50720 << Writing register 19 with 02000000 >>
#                50800 << Writing register 19 with 04000000 >>
#                50880 << Writing register 19 with 08000000 >>
#                50960 << Writing register 19 with 10000000 >>
#                51040 << Writing register 19 with 20000000 >>
#                51120 << Writing register 19 with 40000000 >>
#                51200 << Writing register 19 with 80000000 >>
#                51280 << Writing register 20 with 00000001 >>
#                51360 << Writing register 20 with 00000002 >>
#                51440 << Writing register 20 with 00000004 >>
#                51520 << Writing register 20 with 00000008 >>
#                51600 << Writing register 20 with 00000010 >>
#                51680 << Writing register 20 with 00000020 >>
#                51760 << Writing register 20 with 00000040 >>
#                51840 << Writing register 20 with 00000080 >>
#                51920 << Writing register 20 with 00000100 >>
#                52000 << Writing register 20 with 00000200 >>
#                52080 << Writing register 20 with 00000400 >>
#                52160 << Writing register 20 with 00000800 >>
#                52240 << Writing register 20 with 00001000 >>
#                52320 << Writing register 20 with 00002000 >>
#                52400 << Writing register 20 with 00004000 >>
#                52480 << Writing register 20 with 00008000 >>
#                52560 << Writing register 20 with 00010000 >>
#                52640 << Writing register 20 with 00020000 >>
#                52720 << Writing register 20 with 00040000 >>
#                52800 << Writing register 20 with 00080000 >>
#                52880 << Writing register 20 with 00100000 >>
#                52960 << Writing register 20 with 00200000 >>
#                53040 << Writing register 20 with 00400000 >>
#                53120 << Writing register 20 with 00800000 >>
#                53200 << Writing register 20 with 01000000 >>
#                53280 << Writing register 20 with 02000000 >>
#                53360 << Writing register 20 with 04000000 >>
#                53440 << Writing register 20 with 08000000 >>
#                53520 << Writing register 20 with 10000000 >>
#                53600 << Writing register 20 with 20000000 >>
#                53680 << Writing register 20 with 40000000 >>
#                53760 << Writing register 20 with 80000000 >>
#                53840 << Writing register 21 with 00000001 >>
#                53920 << Writing register 21 with 00000002 >>
#                54000 << Writing register 21 with 00000004 >>
#                54080 << Writing register 21 with 00000008 >>
#                54160 << Writing register 21 with 00000010 >>
#                54240 << Writing register 21 with 00000020 >>
#                54320 << Writing register 21 with 00000040 >>
#                54400 << Writing register 21 with 00000080 >>
#                54480 << Writing register 21 with 00000100 >>
#                54560 << Writing register 21 with 00000200 >>
#                54640 << Writing register 21 with 00000400 >>
#                54720 << Writing register 21 with 00000800 >>
#                54800 << Writing register 21 with 00001000 >>
#                54880 << Writing register 21 with 00002000 >>
#                54960 << Writing register 21 with 00004000 >>
#                55040 << Writing register 21 with 00008000 >>
#                55120 << Writing register 21 with 00010000 >>
#                55200 << Writing register 21 with 00020000 >>
#                55280 << Writing register 21 with 00040000 >>
#                55360 << Writing register 21 with 00080000 >>
#                55440 << Writing register 21 with 00100000 >>
#                55520 << Writing register 21 with 00200000 >>
#                55600 << Writing register 21 with 00400000 >>
#                55680 << Writing register 21 with 00800000 >>
#                55760 << Writing register 21 with 01000000 >>
#                55840 << Writing register 21 with 02000000 >>
#                55920 << Writing register 21 with 04000000 >>
#                56000 << Writing register 21 with 08000000 >>
#                56080 << Writing register 21 with 10000000 >>
#                56160 << Writing register 21 with 20000000 >>
#                56240 << Writing register 21 with 40000000 >>
#                56320 << Writing register 21 with 80000000 >>
#                56400 << Writing register 22 with 00000001 >>
#                56480 << Writing register 22 with 00000002 >>
#                56560 << Writing register 22 with 00000004 >>
#                56640 << Writing register 22 with 00000008 >>
#                56720 << Writing register 22 with 00000010 >>
#                56800 << Writing register 22 with 00000020 >>
#                56880 << Writing register 22 with 00000040 >>
#                56960 << Writing register 22 with 00000080 >>
#                57040 << Writing register 22 with 00000100 >>
#                57120 << Writing register 22 with 00000200 >>
#                57200 << Writing register 22 with 00000400 >>
#                57280 << Writing register 22 with 00000800 >>
#                57360 << Writing register 22 with 00001000 >>
#                57440 << Writing register 22 with 00002000 >>
#                57520 << Writing register 22 with 00004000 >>
#                57600 << Writing register 22 with 00008000 >>
#                57680 << Writing register 22 with 00010000 >>
#                57760 << Writing register 22 with 00020000 >>
#                57840 << Writing register 22 with 00040000 >>
#                57920 << Writing register 22 with 00080000 >>
#                58000 << Writing register 22 with 00100000 >>
#                58080 << Writing register 22 with 00200000 >>
#                58160 << Writing register 22 with 00400000 >>
#                58240 << Writing register 22 with 00800000 >>
#                58320 << Writing register 22 with 01000000 >>
#                58400 << Writing register 22 with 02000000 >>
#                58480 << Writing register 22 with 04000000 >>
#                58560 << Writing register 22 with 08000000 >>
#                58640 << Writing register 22 with 10000000 >>
#                58720 << Writing register 22 with 20000000 >>
#                58800 << Writing register 22 with 40000000 >>
#                58880 << Writing register 22 with 80000000 >>
#                58960 << Writing register 23 with 00000001 >>
#                59040 << Writing register 23 with 00000002 >>
#                59120 << Writing register 23 with 00000004 >>
#                59200 << Writing register 23 with 00000008 >>
#                59280 << Writing register 23 with 00000010 >>
#                59360 << Writing register 23 with 00000020 >>
#                59440 << Writing register 23 with 00000040 >>
#                59520 << Writing register 23 with 00000080 >>
#                59600 << Writing register 23 with 00000100 >>
#                59680 << Writing register 23 with 00000200 >>
#                59760 << Writing register 23 with 00000400 >>
#                59840 << Writing register 23 with 00000800 >>
#                59920 << Writing register 23 with 00001000 >>
#                60000 << Writing register 23 with 00002000 >>
#                60080 << Writing register 23 with 00004000 >>
#                60160 << Writing register 23 with 00008000 >>
#                60240 << Writing register 23 with 00010000 >>
#                60320 << Writing register 23 with 00020000 >>
#                60400 << Writing register 23 with 00040000 >>
#                60480 << Writing register 23 with 00080000 >>
#                60560 << Writing register 23 with 00100000 >>
#                60640 << Writing register 23 with 00200000 >>
#                60720 << Writing register 23 with 00400000 >>
#                60800 << Writing register 23 with 00800000 >>
#                60880 << Writing register 23 with 01000000 >>
#                60960 << Writing register 23 with 02000000 >>
#                61040 << Writing register 23 with 04000000 >>
#                61120 << Writing register 23 with 08000000 >>
#                61200 << Writing register 23 with 10000000 >>
#                61280 << Writing register 23 with 20000000 >>
#                61360 << Writing register 23 with 40000000 >>
#                61440 << Writing register 23 with 80000000 >>
#                61520 << Writing register 24 with 00000001 >>
#                61600 << Writing register 24 with 00000002 >>
#                61680 << Writing register 24 with 00000004 >>
#                61760 << Writing register 24 with 00000008 >>
#                61840 << Writing register 24 with 00000010 >>
#                61920 << Writing register 24 with 00000020 >>
#                62000 << Writing register 24 with 00000040 >>
#                62080 << Writing register 24 with 00000080 >>
#                62160 << Writing register 24 with 00000100 >>
#                62240 << Writing register 24 with 00000200 >>
#                62320 << Writing register 24 with 00000400 >>
#                62400 << Writing register 24 with 00000800 >>
#                62480 << Writing register 24 with 00001000 >>
#                62560 << Writing register 24 with 00002000 >>
#                62640 << Writing register 24 with 00004000 >>
#                62720 << Writing register 24 with 00008000 >>
#                62800 << Writing register 24 with 00010000 >>
#                62880 << Writing register 24 with 00020000 >>
#                62960 << Writing register 24 with 00040000 >>
#                63040 << Writing register 24 with 00080000 >>
#                63120 << Writing register 24 with 00100000 >>
#                63200 << Writing register 24 with 00200000 >>
#                63280 << Writing register 24 with 00400000 >>
#                63360 << Writing register 24 with 00800000 >>
#                63440 << Writing register 24 with 01000000 >>
#                63520 << Writing register 24 with 02000000 >>
#                63600 << Writing register 24 with 04000000 >>
#                63680 << Writing register 24 with 08000000 >>
#                63760 << Writing register 24 with 10000000 >>
#                63840 << Writing register 24 with 20000000 >>
#                63920 << Writing register 24 with 40000000 >>
#                64000 << Writing register 24 with 80000000 >>
#                64080 << Writing register 25 with 00000001 >>
#                64160 << Writing register 25 with 00000002 >>
#                64240 << Writing register 25 with 00000004 >>
#                64320 << Writing register 25 with 00000008 >>
#                64400 << Writing register 25 with 00000010 >>
#                64480 << Writing register 25 with 00000020 >>
#                64560 << Writing register 25 with 00000040 >>
#                64640 << Writing register 25 with 00000080 >>
#                64720 << Writing register 25 with 00000100 >>
#                64800 << Writing register 25 with 00000200 >>
#                64880 << Writing register 25 with 00000400 >>
#                64960 << Writing register 25 with 00000800 >>
#                65040 << Writing register 25 with 00001000 >>
#                65120 << Writing register 25 with 00002000 >>
#                65200 << Writing register 25 with 00004000 >>
#                65280 << Writing register 25 with 00008000 >>
#                65360 << Writing register 25 with 00010000 >>
#                65440 << Writing register 25 with 00020000 >>
#                65520 << Writing register 25 with 00040000 >>
#                65600 << Writing register 25 with 00080000 >>
#                65680 << Writing register 25 with 00100000 >>
#                65760 << Writing register 25 with 00200000 >>
#                65840 << Writing register 25 with 00400000 >>
#                65920 << Writing register 25 with 00800000 >>
#                66000 << Writing register 25 with 01000000 >>
#                66080 << Writing register 25 with 02000000 >>
#                66160 << Writing register 25 with 04000000 >>
#                66240 << Writing register 25 with 08000000 >>
#                66320 << Writing register 25 with 10000000 >>
#                66400 << Writing register 25 with 20000000 >>
#                66480 << Writing register 25 with 40000000 >>
#                66560 << Writing register 25 with 80000000 >>
#                66640 << Writing register 26 with 00000001 >>
#                66720 << Writing register 26 with 00000002 >>
#                66800 << Writing register 26 with 00000004 >>
#                66880 << Writing register 26 with 00000008 >>
#                66960 << Writing register 26 with 00000010 >>
#                67040 << Writing register 26 with 00000020 >>
#                67120 << Writing register 26 with 00000040 >>
#                67200 << Writing register 26 with 00000080 >>
#                67280 << Writing register 26 with 00000100 >>
#                67360 << Writing register 26 with 00000200 >>
#                67440 << Writing register 26 with 00000400 >>
#                67520 << Writing register 26 with 00000800 >>
#                67600 << Writing register 26 with 00001000 >>
#                67680 << Writing register 26 with 00002000 >>
#                67760 << Writing register 26 with 00004000 >>
#                67840 << Writing register 26 with 00008000 >>
#                67920 << Writing register 26 with 00010000 >>
#                68000 << Writing register 26 with 00020000 >>
#                68080 << Writing register 26 with 00040000 >>
#                68160 << Writing register 26 with 00080000 >>
#                68240 << Writing register 26 with 00100000 >>
#                68320 << Writing register 26 with 00200000 >>
#                68400 << Writing register 26 with 00400000 >>
#                68480 << Writing register 26 with 00800000 >>
#                68560 << Writing register 26 with 01000000 >>
#                68640 << Writing register 26 with 02000000 >>
#                68720 << Writing register 26 with 04000000 >>
#                68800 << Writing register 26 with 08000000 >>
#                68880 << Writing register 26 with 10000000 >>
#                68960 << Writing register 26 with 20000000 >>
#                69040 << Writing register 26 with 40000000 >>
#                69120 << Writing register 26 with 80000000 >>
#                69200 << Writing register 27 with 00000001 >>
#                69280 << Writing register 27 with 00000002 >>
#                69360 << Writing register 27 with 00000004 >>
#                69440 << Writing register 27 with 00000008 >>
#                69520 << Writing register 27 with 00000010 >>
#                69600 << Writing register 27 with 00000020 >>
#                69680 << Writing register 27 with 00000040 >>
#                69760 << Writing register 27 with 00000080 >>
#                69840 << Writing register 27 with 00000100 >>
#                69920 << Writing register 27 with 00000200 >>
#                70000 << Writing register 27 with 00000400 >>
#                70080 << Writing register 27 with 00000800 >>
#                70160 << Writing register 27 with 00001000 >>
#                70240 << Writing register 27 with 00002000 >>
#                70320 << Writing register 27 with 00004000 >>
#                70400 << Writing register 27 with 00008000 >>
#                70480 << Writing register 27 with 00010000 >>
#                70560 << Writing register 27 with 00020000 >>
#                70640 << Writing register 27 with 00040000 >>
#                70720 << Writing register 27 with 00080000 >>
#                70800 << Writing register 27 with 00100000 >>
#                70880 << Writing register 27 with 00200000 >>
#                70960 << Writing register 27 with 00400000 >>
#                71040 << Writing register 27 with 00800000 >>
#                71120 << Writing register 27 with 01000000 >>
#                71200 << Writing register 27 with 02000000 >>
#                71280 << Writing register 27 with 04000000 >>
#                71360 << Writing register 27 with 08000000 >>
#                71440 << Writing register 27 with 10000000 >>
#                71520 << Writing register 27 with 20000000 >>
#                71600 << Writing register 27 with 40000000 >>
#                71680 << Writing register 27 with 80000000 >>
#                71760 << Writing register 28 with 00000001 >>
#                71840 << Writing register 28 with 00000002 >>
#                71920 << Writing register 28 with 00000004 >>
#                72000 << Writing register 28 with 00000008 >>
#                72080 << Writing register 28 with 00000010 >>
#                72160 << Writing register 28 with 00000020 >>
#                72240 << Writing register 28 with 00000040 >>
#                72320 << Writing register 28 with 00000080 >>
#                72400 << Writing register 28 with 00000100 >>
#                72480 << Writing register 28 with 00000200 >>
#                72560 << Writing register 28 with 00000400 >>
#                72640 << Writing register 28 with 00000800 >>
#                72720 << Writing register 28 with 00001000 >>
#                72800 << Writing register 28 with 00002000 >>
#                72880 << Writing register 28 with 00004000 >>
#                72960 << Writing register 28 with 00008000 >>
#                73040 << Writing register 28 with 00010000 >>
#                73120 << Writing register 28 with 00020000 >>
#                73200 << Writing register 28 with 00040000 >>
#                73280 << Writing register 28 with 00080000 >>
#                73360 << Writing register 28 with 00100000 >>
#                73440 << Writing register 28 with 00200000 >>
#                73520 << Writing register 28 with 00400000 >>
#                73600 << Writing register 28 with 00800000 >>
#                73680 << Writing register 28 with 01000000 >>
#                73760 << Writing register 28 with 02000000 >>
#                73840 << Writing register 28 with 04000000 >>
#                73920 << Writing register 28 with 08000000 >>
#                74000 << Writing register 28 with 10000000 >>
#                74080 << Writing register 28 with 20000000 >>
#                74160 << Writing register 28 with 40000000 >>
#                74240 << Writing register 28 with 80000000 >>
#                74320 << Writing register 29 with 00000001 >>
#                74400 << Writing register 29 with 00000002 >>
#                74480 << Writing register 29 with 00000004 >>
#                74560 << Writing register 29 with 00000008 >>
#                74640 << Writing register 29 with 00000010 >>
#                74720 << Writing register 29 with 00000020 >>
#                74800 << Writing register 29 with 00000040 >>
#                74880 << Writing register 29 with 00000080 >>
#                74960 << Writing register 29 with 00000100 >>
#                75040 << Writing register 29 with 00000200 >>
#                75120 << Writing register 29 with 00000400 >>
#                75200 << Writing register 29 with 00000800 >>
#                75280 << Writing register 29 with 00001000 >>
#                75360 << Writing register 29 with 00002000 >>
#                75440 << Writing register 29 with 00004000 >>
#                75520 << Writing register 29 with 00008000 >>
#                75600 << Writing register 29 with 00010000 >>
#                75680 << Writing register 29 with 00020000 >>
#                75760 << Writing register 29 with 00040000 >>
#                75840 << Writing register 29 with 00080000 >>
#                75920 << Writing register 29 with 00100000 >>
#                76000 << Writing register 29 with 00200000 >>
#                76080 << Writing register 29 with 00400000 >>
#                76160 << Writing register 29 with 00800000 >>
#                76240 << Writing register 29 with 01000000 >>
#                76320 << Writing register 29 with 02000000 >>
#                76400 << Writing register 29 with 04000000 >>
#                76480 << Writing register 29 with 08000000 >>
#                76560 << Writing register 29 with 10000000 >>
#                76640 << Writing register 29 with 20000000 >>
#                76720 << Writing register 29 with 40000000 >>
#                76800 << Writing register 29 with 80000000 >>
#                76880 << Writing register 30 with 00000001 >>
#                76960 << Writing register 30 with 00000002 >>
#                77040 << Writing register 30 with 00000004 >>
#                77120 << Writing register 30 with 00000008 >>
#                77200 << Writing register 30 with 00000010 >>
#                77280 << Writing register 30 with 00000020 >>
#                77360 << Writing register 30 with 00000040 >>
#                77440 << Writing register 30 with 00000080 >>
#                77520 << Writing register 30 with 00000100 >>
#                77600 << Writing register 30 with 00000200 >>
#                77680 << Writing register 30 with 00000400 >>
#                77760 << Writing register 30 with 00000800 >>
#                77840 << Writing register 30 with 00001000 >>
#                77920 << Writing register 30 with 00002000 >>
#                78000 << Writing register 30 with 00004000 >>
#                78080 << Writing register 30 with 00008000 >>
#                78160 << Writing register 30 with 00010000 >>
#                78240 << Writing register 30 with 00020000 >>
#                78320 << Writing register 30 with 00040000 >>
#                78400 << Writing register 30 with 00080000 >>
#                78480 << Writing register 30 with 00100000 >>
#                78560 << Writing register 30 with 00200000 >>
#                78640 << Writing register 30 with 00400000 >>
#                78720 << Writing register 30 with 00800000 >>
#                78800 << Writing register 30 with 01000000 >>
#                78880 << Writing register 30 with 02000000 >>
#                78960 << Writing register 30 with 04000000 >>
#                79040 << Writing register 30 with 08000000 >>
#                79120 << Writing register 30 with 10000000 >>
#                79200 << Writing register 30 with 20000000 >>
#                79280 << Writing register 30 with 40000000 >>
#                79360 << Writing register 30 with 80000000 >>
#                79440 << Writing register 31 with 00000001 >>
#                79520 << Writing register 31 with 00000002 >>
#                79600 << Writing register 31 with 00000004 >>
#                79680 << Writing register 31 with 00000008 >>
#                79760 << Writing register 31 with 00000010 >>
#                79840 << Writing register 31 with 00000020 >>
#                79920 << Writing register 31 with 00000040 >>
#                80000 << Writing register 31 with 00000080 >>
#                80080 << Writing register 31 with 00000100 >>
#                80160 << Writing register 31 with 00000200 >>
#                80240 << Writing register 31 with 00000400 >>
#                80320 << Writing register 31 with 00000800 >>
#                80400 << Writing register 31 with 00001000 >>
#                80480 << Writing register 31 with 00002000 >>
#                80560 << Writing register 31 with 00004000 >>
#                80640 << Writing register 31 with 00008000 >>
#                80720 << Writing register 31 with 00010000 >>
#                80800 << Writing register 31 with 00020000 >>
#                80880 << Writing register 31 with 00040000 >>
#                80960 << Writing register 31 with 00080000 >>
#                81040 << Writing register 31 with 00100000 >>
#                81120 << Writing register 31 with 00200000 >>
#                81200 << Writing register 31 with 00400000 >>
#                81280 << Writing register 31 with 00800000 >>
#                81360 << Writing register 31 with 01000000 >>
#                81440 << Writing register 31 with 02000000 >>
#                81520 << Writing register 31 with 04000000 >>
#                81600 << Writing register 31 with 08000000 >>
#                81680 << Writing register 31 with 10000000 >>
#                81760 << Writing register 31 with 20000000 >>
#                81840 << Writing register 31 with 40000000 >>
#                81920 << Writing register 31 with 80000000 >>
# The simulation completed without errors
# ** Note: $stop    : D:/Quartus/ECE550/Registerfile/regfile_tb.v(67)
#    Time: 81980 ns  Iteration: 1  Instance: /regfile_tb
# Break in Module regfile_tb at D:/Quartus/ECE550/Registerfile/regfile_tb.v line 67
# End time: 15:07:52 on Sep 26,2023, Elapsed time: 0:00:20
# Errors: 0, Warnings: 0
